! Copyright - Freescale Semiconductor, Inc. 2011
! 08/26/2011
! Rev. 0
! MML20242H S-Parameters de-embedded to package pins using datasheet 2535 MHz application circuit (PCB=QFN 3x3 12E Rev. 0)
! Vdd=5V, Idd=165mA, L1=Coilcraft 0402HP-2N7X_L_, L3=Coilcraft 0402CS-1N0X_L_, C5=Murata GJM1555C1H180GB01, C8=Murata GRM1555C1H180JA01, R1 NOT PLACED 
! R2=RC0402FR-071k2RL, R3=RC0402FR-071k2RL, C10= Murata GRM155R61A104K01, C11=Murata GRM1555C1H180JA01, C12=Murata GRM1555C1H180JA01, C13=Murata GRM155R61A104K01
! Reference Plane: RF input and output pins at edge of package body.
!
# hz S ma R 50
! 
! freq  magS11  angS11  magS21  angS21  magS12  angS12  magS22  angS22  
!     
         300000000       0.884661219        -141.323332         94.4058884        -103.074897     0.000216551693         99.6943529        0.252768209         150.790251
         350000000       0.920402659        -150.019539         47.4659411         -151.70134     0.000392447526           35.67865        0.284905323         134.806082
         400000000       0.928913119        -157.752058         19.8093371        -170.530891     0.000361403157         127.721729        0.246353082         125.177312
         450000000       0.940559997        -165.069422         9.65158272          178.28796     0.000146327192         -139.69444        0.226824294         118.456853
         500000000       0.946985835        -171.744121         3.78447213         171.405707     9.7096441e-005         37.1908413        0.209050665          112.45949
         550000000       0.950595276        -177.954011         1.31622501         -177.63455     0.000204069752         22.0191799        0.195643876         108.163104
         600000000       0.951381519         176.165215         0.18337478        -116.133278     0.000157890175         134.943562        0.180076719         101.460379
         650000000       0.948265656         170.474125        0.400419837         48.1758725     0.000285522367         99.2595655        0.166150226         96.1561665
         700000000        0.94401326           164.9121         1.49867551         66.1579335     0.000321133646        -111.962107         0.15353229         91.8222696
         750000000        0.93403722         159.468031          3.0923174         71.5291091    6.41833031e-005        -100.634861        0.142706019         85.5947632
         800000000       0.921267432         154.065049         5.47952484         69.6581656     0.000414319047        -154.638144        0.133523931         79.8672956
         850000000       0.905998491         148.609206         8.35926593         64.1155449     0.000355367856         172.896774        0.122053603         73.0203445
         900000000       0.886482062         143.145092         11.7826394         57.2992145     0.000506040861         172.607602        0.112715988         65.1967347
         950000000       0.864023639         137.656934         15.8254763         50.1836079     0.000683456363        -168.868342        0.104530861         57.1283604
            1e+009       0.837612552         132.003769         20.7128806         42.0855236     0.000542199362        -168.528786       0.0942669162         46.6516062
         1.05e+009        0.80657951         126.159948         26.2702946         33.2622943     0.000786884414         165.183444       0.0879357121         35.8697226
          1.1e+009       0.773060995         120.116604         32.5288708         23.7457944     0.000636176303         167.991954       0.0808738719         23.4058282
         1.15e+009       0.733711279         113.681239         39.7295715         13.8135894     0.000502603353         178.650389       0.0742531592          7.4320183
          1.2e+009       0.688383519         106.802224         47.7848867         2.91632815     0.000806634997         167.618288       0.0740709307        -11.5093705
         1.25e+009        0.63657745         99.3077512         56.6038448        -8.74455324     0.000540156282         172.402237       0.0793349125        -33.4899206
          1.3e+009       0.573865799         91.0969099         66.0185411        -21.4064873      0.00102685335         164.953323       0.0831833638        -50.8593088
         1.35e+009        0.50057275         82.2826388         75.4101194        -35.1868271      0.00129399807         154.150253        0.091806446        -72.8652921
          1.4e+009       0.417082359         72.7978402         83.8277705        -49.8961236      0.00115398036         160.602866        0.100781782        -90.5628063
         1.45e+009       0.323460404         63.1952075         89.9847408        -65.2428126       0.0012489049         158.705757        0.109392224        -106.235339
          1.5e+009       0.227687828         54.6790825         93.0604621        -80.4982418      0.00162769565         158.676298        0.112469018        -123.708991
         1.55e+009       0.138514996         48.4793962         93.2124971        -95.1999675      0.00149176063         158.149813        0.110938196        -135.990357
          1.6e+009      0.0629347692         51.2239618         90.9445016         -108.91548      0.00194150917           149.7335        0.114572655        -148.446734
         1.65e+009      0.0210866177          126.02698         87.0042373        -121.436921      0.00198685376         150.340139        0.110621892        -160.896671
          1.7e+009      0.0562196615         177.207032         82.3573139        -132.697904      0.00259897842         145.506786         0.10089743        -172.774751
         1.75e+009      0.0921318355        -176.784208         77.5240944        -142.840424      0.00240865002         141.138116       0.0941123262         -178.29291
          1.8e+009       0.119649657        -176.884365         72.8459652         -152.09044      0.00250670658          140.97581       0.0818122916         176.049179
         1.85e+009       0.140992556        -177.232052         68.4452807        -160.550444      0.00233073827          131.84485        0.073335156         171.674631
          1.9e+009       0.155177794        -177.337527         64.4437905        -168.293143      0.00266665343         130.637201       0.0553833992         165.647752
         1.95e+009       0.167237551        -177.600484         60.6974177        -175.285478      0.00244094062         127.982252       0.0407901394         170.391782
            2e+009       0.176870339        -176.986238         57.8808373         178.421712      0.00255839917         125.236052       0.0351338904         172.388819
         2.05e+009       0.185365801        -175.761481         55.7070032         171.976064      0.00283078116         122.818554       0.0298812113        -178.159378
          2.1e+009       0.191172165        -175.558483         53.6215252         165.576419      0.00312874857         130.316869       0.0183384786        -166.425937
         2.15e+009        0.19898512        -174.075899         51.7606231         159.253281      0.00362880804          121.62264       0.0132379638        -118.833105
          2.2e+009       0.206353802        -172.827174          50.077894         153.085586      0.00328502786         119.007665       0.0265372819        -82.7983486
         2.25e+009       0.213524654        -171.609599         48.5706441          146.86722      0.00336995315         120.308895       0.0447681653        -71.9959349
          2.3e+009       0.220817018        -169.957775         47.2007696         140.764456      0.00349435143         124.063736       0.0604819874        -70.0011415
         2.35e+009       0.228856807        -168.994863          45.973738         134.537642       0.0037000093         117.847302       0.0836074625        -72.2094694
          2.4e+009       0.238645368        -167.874596         44.8713116         128.237086       0.0036103455         116.500456        0.110026082        -73.9655363
         2.45e+009       0.248045183        -166.774263         43.8102182         121.838601      0.00362598845         109.306921        0.130058633        -78.0841897
          2.5e+009       0.257700579        -165.930309         42.7712702         115.257437      0.00378861215         114.467807        0.158313898        -81.9484559
         2.55e+009       0.269690347         -165.31829         41.7366019           108.5058      0.00405263123          111.54254        0.188124312          -85.70229
          2.6e+009       0.281491278        -164.958858          40.653511         101.604699      0.00422116724         104.357619         0.21431789        -90.3556153
         2.65e+009       0.293830091        -164.842437         39.4723409         94.5170766      0.00416691732         105.302947        0.245930171        -95.6029191
          2.7e+009       0.307128723        -164.663841         38.2155597         87.2237401      0.00447829527          105.92938        0.277092897        -100.524064
         2.75e+009        0.31860884        -165.191823         36.6523832         79.8491898      0.00437785345          107.81499         0.30942417        -106.577063
          2.8e+009        0.33307814        -165.863884         35.0589274         72.9871805      0.00481524209          102.98676         0.34298651        -112.619108
         2.85e+009       0.343702533        -166.604014         33.6936383         65.6688044      0.00483462074         101.091944        0.362545991         -118.57791
          2.9e+009       0.355547947        -167.381778         32.0339848         58.2154229      0.00515375732         99.0162229        0.385493372        -124.626946
         2.95e+009       0.366295199        -168.310351         30.2546751         50.8327258      0.00518104653         96.2297258        0.407139615        -130.179852
            3e+009       0.375695504        -169.614945         28.3832908         43.6072347      0.00538558949         92.1065347        0.422220891        -136.046068
         3.05e+009       0.385547327        -170.813093          26.460152         36.5937531      0.00548899497         90.1577531        0.438717039        -141.894318
          3.1e+009       0.392995889        -172.017928         24.5806366          29.821564      0.00560456133          90.104264        0.448369787        -147.155094
         3.15e+009        0.39986053        -173.393896         22.7141366         23.3877031      0.00562243876         87.4813031        0.454423686        -152.706225
          3.2e+009       0.405598828        -174.553805         20.9405161         17.1821686      0.00571031257         84.6284686        0.459949792        -157.658455
         3.25e+009       0.409371381        -175.813022         19.2648023         11.3260069      0.00615383797         82.2786069        0.460869221          -162.6613
          3.3e+009        0.41187389        -176.994014          17.685181         5.84076682      0.00606117757         81.1541668        0.460378507        -167.313289
         3.35e+009       0.415337595        -177.950251         16.2286471        0.553188588      0.00574407119         78.2419886        0.458021999        -171.542372
          3.4e+009       0.417049959         -178.98009         14.8946148        -4.36943185       0.0060121911         81.9753681        0.454354495        -175.877076
         3.45e+009        0.41858577        -179.829607         13.6603236        -8.98429964      0.00583926234         79.9459004        0.449739979        -179.769252
          3.5e+009       0.419405564         179.576883         12.5506768        -13.3731608      0.00612227938         76.0844392        0.443341844         176.505886
         3.55e+009       0.418739748         178.820811         11.5456359        -17.4857945      0.00648314686         74.2983355        0.436835092          172.52656
          3.6e+009       0.419940852         178.223623         10.6458879        -21.4432093      0.00631315405         75.7103207        0.433440243         168.964955
         3.65e+009       0.419812361         177.773779         9.83437736        -25.1522171      0.00644902216         71.3601329        0.424985227         165.414311
          3.7e+009       0.420984195         177.106781         9.09239922        -28.6230261      0.00607380711         72.0188839        0.420034121         161.685554
         3.75e+009       0.422080713         176.515329         8.43216918        -31.7980897      0.00646051756         70.4927603        0.415573166         158.599984
          3.8e+009       0.424195106         175.961807         7.85410904        -34.9194324      0.00664246732         68.8189876        0.408850229          155.22629
         3.85e+009       0.425511921         175.172222         7.35061417        -37.9972554      0.00681001592         66.9468846        0.406764218         151.934398
          3.9e+009       0.427781327         174.396997         6.89852416        -41.2213564      0.00631218458         63.9926136        0.402893561         149.217471
         3.95e+009       0.428918107         173.598044         6.48489167        -44.6545182      0.00647417189         62.9306818        0.398984943          146.15397
            4e+009       0.430484433         172.697636         6.06769854        -48.1767613      0.00672716368         63.5468987        0.397408127         143.388032
